
T0E4C 000:284 SEGGER J-Link V4.98c Log File (0001ms, 0259ms total)
T0E4C 000:284 DLL Compiled: Apr 23 2015 20:21:50 (0001ms, 0259ms total)
T0E4C 000:284 Logging started @ 2015-08-17 16:02 (0001ms, 0259ms total)
T0E4C 000:285 JLINK_SetWarnOutHandler(...) (0000ms, 0259ms total)
T0E4C 000:285 JLINK_OpenEx(...)
Firmware: J-Link OB-SAM3U128-V2-NordicSemi compiled May  4 2015 13:48:48
Hardware: V1.00
S/N: 681802776  returns O.K. (0257ms, 0516ms total)
T0E4C 000:542 JLINK_SetErrorOutHandler(...) (0000ms, 0516ms total)
T0E4C 000:542 JLINK_ExecCommand("ProjectFile = "E:\workspace\Keil\Nordic\RFduino\RFDuino_Nordic_BLE\JLinkSettings.ini"", ...)  returns 0x00 (0000ms, 0516ms total)
T0E4C 000:546 JLINK_ExecCommand("Device = nRF51822_xxAA", ...)Device "NRF51822_XXAA" selected.  returns 0x00 (0007ms, 0523ms total)
T0E4C 000:553 JLINK_ExecCommand("DisableConnectionTimeout", ...)  returns 0x01 (0000ms, 0523ms total)
T0E4C 000:553 JLINK_GetHardwareVersion()  returns 0x2710 (0000ms, 0523ms total)
T0E4C 000:553 JLINK_GetDLLVersion()  returns 49803 (0000ms, 0523ms total)
T0E4C 000:553 JLINK_GetFirmwareString(...) (0000ms, 0523ms total)
T0E4C 000:559 JLINK_GetDLLVersion()  returns 49803 (0000ms, 0523ms total)
T0E4C 000:559 JLINK_GetCompileDateTime() (0000ms, 0523ms total)
T0E4C 000:561 JLINK_GetFirmwareString(...) (0000ms, 0523ms total)
T0E4C 000:563 JLINK_GetHardwareVersion()  returns 0x2710 (0000ms, 0523ms total)
T0E4C 000:568 JLINK_TIF_Select(JLINKARM_TIF_SWD)  returns 0x00 (0002ms, 0525ms total)
T0E4C 000:570 JLINK_SetSpeed(5000) (0000ms, 0525ms total)
T0E4C 000:570 JLINK_GetId() >0x108 TIF>Found SWD-DP with ID 0x0BB11477 >0x35 TIF> >0x0D TIF> >0x28 TIF> >0x0D TIF> >0x28 TIF> >0x35 TIF> >0x0D TIF> >0x28 TIF> >0x35 TIF> >0x35 TIF> >0x35 TIF> >0x0D TIF> >0x28 TIF> >0x0D TIF> >0x28 TIF> >0x0D TIF> >0x28 TIF> >0x35 TIF> >0x35 TIF> >0x35 TIF> >0x0D TIF> >0x28 TIF> >0x0D TIF> >0x28 TIF> >0x35 TIF> >0x0D TIF> >0x28 TIF> >0x0D TIF> >0x28 TIF> >0x0D TIF> >0x28 TIF> >0x35 TIF> >0x35 TIF> >0x0D TIF> >0x28 TIF> >0x35 TIF> >0x35 TIF>
Found Cortex-M0 r0p0, Little endian. -- CPU_WriteMem(4 bytes @ 0xE0002000) -- CPU_ReadMem(4 bytes @ 0xE000EDF0) -- CPU_ReadMem(4 bytes @ 0xE0002000)FPUnit: 4 code (BP) slots and 0 literal slots -- CPU_ReadMem(4 bytes @ 0xE000EDFC) -- CPU_ReadMem(4 bytes @ 0xE0001000) -- CPU_WriteMem(4 bytes @ 0xE0001000)CoreSight components:ROMTbl 0 @ F0000000 -- CPU_ReadMem(16 bytes @ 0xF0000000) -- CPU_ReadMem(16 bytes @ 0xE00FFFF0) -- CPU_ReadMem(16 bytes @ 0xE00FFFE0)
ROMTbl 0 [0]: F00FF000, CID: B105100D, PID: 000BB471 ROM TableROMTbl 1 @ E00FF000 -- CPU_ReadMem(16 bytes @ 0xE00FF000) -- CPU_ReadMem(16 bytes @ 0xE000EFF0) -- CPU_ReadMem(16 bytes @ 0xE000EFE0)ROMTbl 1 [0]: FFF0F000, CID: B105E00D, PID: 000BB008 SCS -- CPU_ReadMem(16 bytes @ 0xE0001FF0) -- CPU_ReadMem(16 bytes @ 0xE0001FE0)ROMTbl 1 [1]: FFF02000, CID: B105E00D, PID: 000BB00A DWT -- CPU_ReadMem(16 bytes @ 0xE0002FF0) -- CPU_ReadMem(16 bytes @ 0xE0002FE0)
ROMTbl 1 [2]: FFF03000, CID: B105E00D, PID: 000BB00B FPB -- CPU_ReadMem(16 bytes @ 0xF0002FF0) -- CPU_ReadMem(16 bytes @ 0xF0002FE0)ROMTbl 0 [1]: 00002000, CID: B105900D, PID: 000BB9A3 ??? >0x35 TIF>  returns 0x0BB11477 (0045ms, 0570ms total)
T0E4C 000:615 JLINK_GetDLLVersion()  returns 49803 (0000ms, 0570ms total)
T0E4C 000:615 JLINK_CORE_GetFound()  returns 0x60000FF (0000ms, 0570ms total)
T0E4C 000:615 JLINK_GetDebugInfo(0x100) -- Value=0xF0000003  returns 0x00 (0000ms, 0570ms total)
T0E4C 000:617 JLINK_ReadMem (0xF0000000, 0x0020 Bytes, ...) -- CPU is running -- CPU_ReadMem(32 bytes @ 0xF0000000) - Data: 03 F0 0F F0 03 20 00 00 00 00 00 00 00 00 00 00 ...  returns 0x00 (0002ms, 0572ms total)
T0E4C 000:619 JLINK_ReadMem (0xE00FFFF0, 0x0010 Bytes, ...) -- CPU is running -- CPU_ReadMem(16 bytes @ 0xE00FFFF0) - Data: 0D 00 00 00 10 00 00 00 05 00 00 00 B1 00 00 00  returns 0x00 (0000ms, 0572ms total)
T0E4C 000:619 JLINK_ReadMem (0xE00FFFD0, 0x0020 Bytes, ...) -- CPU is running -- CPU_ReadMem(32 bytes @ 0xE00FFFD0) - Data: 04 00 00 00 00 00 00 00 00 00 00 00 00 00 00 00 ...  returns 0x00 (0001ms, 0573ms total)
T0E4C 000:620 JLINK_ReadMem (0xE00FF000, 0x0020 Bytes, ...) -- CPU is running -- CPU_ReadMem(32 bytes @ 0xE00FF000) - Data: 03 F0 F0 FF 03 20 F0 FF 03 30 F0 FF 00 00 00 00 ...  returns 0x00 (0002ms, 0575ms total)
T0E4C 000:622 JLINK_ReadMem (0xE000EFF0, 0x0010 Bytes, ...) -- CPU is running -- CPU_ReadMem(16 bytes @ 0xE000EFF0) - Data: 0D 00 00 00 E0 00 00 00 05 00 00 00 B1 00 00 00  returns 0x00 (0000ms, 0575ms total)
T0E4C 000:622 JLINK_ReadMem (0xE000EFD0, 0x0020 Bytes, ...) -- CPU is running -- CPU_ReadMem(32 bytes @ 0xE000EFD0) - Data: 04 00 00 00 00 00 00 00 00 00 00 00 00 00 00 00 ...  returns 0x00 (0001ms, 0576ms total)
T0E4C 000:623 JLINK_ReadMem (0xE0001FF0, 0x0010 Bytes, ...) -- CPU is running -- CPU_ReadMem(16 bytes @ 0xE0001FF0) - Data: 0D 00 00 00 E0 00 00 00 05 00 00 00 B1 00 00 00  returns 0x00 (0002ms, 0578ms total)
T0E4C 000:625 JLINK_ReadMem (0xE0001FD0, 0x0020 Bytes, ...) -- CPU is running -- CPU_ReadMem(32 bytes @ 0xE0001FD0) - Data: 04 00 00 00 00 00 00 00 00 00 00 00 00 00 00 00 ...  returns 0x00 (0001ms, 0579ms total)
T0E4C 000:626 JLINK_ReadMem (0xE0002FF0, 0x0010 Bytes, ...) -- CPU is running -- CPU_ReadMem(16 bytes @ 0xE0002FF0) - Data: 0D 00 00 00 E0 00 00 00 05 00 00 00 B1 00 00 00  returns 0x00 (0000ms, 0579ms total)
T0E4C 000:626 JLINK_ReadMem (0xE0002FD0, 0x0020 Bytes, ...) -- CPU is running -- CPU_ReadMem(32 bytes @ 0xE0002FD0) - Data: 04 00 00 00 00 00 00 00 00 00 00 00 00 00 00 00 ...  returns 0x00 (0001ms, 0580ms total)
T0E4C 000:627 JLINK_ReadMem (0xF0002FF0, 0x0010 Bytes, ...) -- CPU is running -- CPU_ReadMem(16 bytes @ 0xF0002FF0) - Data: 0D 00 00 00 90 00 00 00 05 00 00 00 B1 00 00 00  returns 0x00 (0001ms, 0581ms total)
T0E4C 000:628 JLINK_ReadMem (0xF0002FD0, 0x0020 Bytes, ...) -- CPU is running -- CPU_ReadMem(32 bytes @ 0xF0002FD0) - Data: 04 00 00 00 00 00 00 00 00 00 00 00 00 00 00 00 ...  returns 0x00 (0001ms, 0582ms total)
T0E4C 000:629 JLINK_ReadMemU32(0xE000ED00, 0x0001 Items, ...) -- CPU is running -- CPU_ReadMem(4 bytes @ 0xE000ED00) - Data: 00 C2 0C 41  returns 0x01 (0001ms, 0583ms total)
T0E4C 000:630 JLINK_SetResetType(JLINKARM_RESET_TYPE_NORMAL)  returns JLINKARM_RESET_TYPE_NORMAL (0000ms, 0583ms total)
T0E4C 000:630 JLINK_Reset() -- CPU is running -- CPU_WriteMem(4 bytes @ 0xE000EDF0) -- CPU is running -- CPU_WriteMem(4 bytes @ 0xE000EDFC) >0x35 TIF> -- CPU is running -- CPU_WriteMem(4 bytes @ 0xE000ED0C) -- CPU is running -- CPU_ReadMem(4 bytes @ 0xE000EDF0) -- CPU is running -- CPU_ReadMem(4 bytes @ 0xE000EDF0) -- CPU is running -- CPU_WriteMem(4 bytes @ 0xE000EDF0) -- CPU is running -- CPU_WriteMem(4 bytes @ 0xE000EDFC) -- CPU is running -- CPU_ReadMem(4 bytes @ 0xE000EDF0)
 -- CPU_WriteMem(4 bytes @ 0xE0002000) -- CPU_ReadMem(4 bytes @ 0xE000EDFC) -- CPU_ReadMem(4 bytes @ 0xE0001000) -- CPU_WriteMem(4 bytes @ 0xE0001000) (0022ms, 0605ms total)
T0E4C 000:652 JLINK_Halt()  returns 0x00 (0000ms, 0605ms total)
T0E4C 000:652 JLINK_IsHalted()  returns TRUE (0000ms, 0605ms total)
T0E4C 000:652 JLINK_ReadMemU32(0xE000EDF0, 0x0001 Items, ...) -- CPU_ReadMem(4 bytes @ 0xE000EDF0) - Data: 03 00 03 00  returns 0x01 (0000ms, 0605ms total)
T0E4C 000:652 JLINK_WriteU32(0xE000EDF0, 0xA05F0003) -- CPU_WriteMem(4 bytes @ 0xE000EDF0)  returns 0x00 (0000ms, 0605ms total)
T0E4C 000:652 JLINK_WriteU32(0xE000EDFC, 0x01000000) -- CPU_WriteMem(4 bytes @ 0xE000EDFC)  returns 0x00 (0001ms, 0606ms total)
T0E4C 000:662 JLINK_GetHWStatus(...)  returns 0x00 (0001ms, 0607ms total)
T0E4C 000:668 JLINK_GetNumBPUnits(Type = 0xFFFFFF00)  returns 0x04 (0000ms, 0607ms total)
T0E4C 000:668 JLINK_GetNumBPUnits(Type = 0xF0)  returns 0x2000 (0000ms, 0607ms total)
T0E4C 000:668 JLINK_GetNumWPUnits()  returns 0x02 (0000ms, 0607ms total)
T0E4C 000:676 JLINK_GetSpeed()  returns 0x3E8 (0000ms, 0607ms total)
T0E4C 000:679 JLINK_ReadMemU32(0xE000E004, 0x0001 Items, ...) -- CPU_ReadMem(4 bytes @ 0xE000E004) - Data: 00 00 00 00  returns 0x01 (0001ms, 0608ms total)
T0E4C 000:680 JLINK_Halt()  returns 0x00 (0000ms, 0608ms total)
T0E4C 000:680 JLINK_IsHalted()  returns TRUE (0000ms, 0608ms total)
T0E4C 000:682 JLINK_WriteMem(0x20000000, 0x0478 Bytes, ...) - Data: 00 BE 0A E0 0D 78 2D 06 68 40 08 24 40 00 00 D3 ... -- CPU_WriteMem(1144 bytes @ 0x20000000)  returns 0x478 (0018ms, 0626ms total)
T0E4C 000:700 JLINK_WriteReg(R0, 0x00000000)  returns 0x00 (0000ms, 0626ms total)
T0E4C 000:700 JLINK_WriteReg(R1, 0x00F42400)  returns 0x00 (0000ms, 0626ms total)
T0E4C 000:700 JLINK_WriteReg(R2, 0x00000001)  returns 0x00 (0000ms, 0626ms total)
T0E4C 000:700 JLINK_WriteReg(R3, 0x00000000)  returns 0x00 (0000ms, 0626ms total)
T0E4C 000:700 JLINK_WriteReg(R4, 0x00000000)  returns 0x00 (0000ms, 0626ms total)
T0E4C 000:700 JLINK_WriteReg(R5, 0x00000000)  returns 0x00 (0000ms, 0626ms total)
T0E4C 000:700 JLINK_WriteReg(R6, 0x00000000)  returns 0x00 (0000ms, 0626ms total)
T0E4C 000:700 JLINK_WriteReg(R7, 0x00000000)  returns 0x00 (0000ms, 0626ms total)
T0E4C 000:700 JLINK_WriteReg(R8, 0x00000000)  returns 0x00 (0000ms, 0626ms total)
T0E4C 000:700 JLINK_WriteReg(R9, 0x20000474)  returns 0x00 (0000ms, 0626ms total)
T0E4C 000:700 JLINK_WriteReg(R10, 0x00000000)  returns 0x00 (0000ms, 0626ms total)
T0E4C 000:700 JLINK_WriteReg(R11, 0x00000000)  returns 0x00 (0000ms, 0626ms total)
T0E4C 000:700 JLINK_WriteReg(R12, 0x00000000)  returns 0x00 (0000ms, 0626ms total)
T0E4C 000:700 JLINK_WriteReg(R13 (SP), 0x20001000)  returns 0x00 (0000ms, 0626ms total)
T0E4C 000:700 JLINK_WriteReg(R14, 0x20000001)  returns 0x00 (0000ms, 0626ms total)
T0E4C 000:700 JLINK_WriteReg(R15 (PC), 0x20000028)  returns 0x00 (0000ms, 0626ms total)
T0E4C 000:700 JLINK_WriteReg(XPSR, 0x01000000)  returns 0x00 (0000ms, 0626ms total)
T0E4C 000:700 JLINK_WriteReg(MSP, 0x20001000)  returns 0x00 (0000ms, 0626ms total)
T0E4C 000:700 JLINK_WriteReg(PSP, 0x20001000)  returns 0x00 (0000ms, 0626ms total)
T0E4C 000:700 JLINK_WriteReg(CFBP, 0x00000000)  returns 0x00 (0000ms, 0626ms total)
T0E4C 000:700 JLINK_SetBPEx(Addr = 0x20000000, Type = 0xFFFFFFF2) -- CPU_ReadMem(2 bytes @ 0x20000000)  returns 0x00000001 (0001ms, 0627ms total)
T0E4C 000:701 JLINK_Go() -- CPU_WriteMem(2 bytes @ 0x20000000) -- CPU_ReadMem(4 bytes @ 0xE0001000) -- CPU_WriteMem(4 bytes @ 0xE0001000) -- CPU_WriteMem(4 bytes @ 0xE0002008) -- CPU_WriteMem(4 bytes @ 0xE000200C) -- CPU_WriteMem(4 bytes @ 0xE0002010) -- CPU_WriteMem(4 bytes @ 0xE0002014) -- CPU_WriteMem(4 bytes @ 0xE0001004) (0007ms, 0634ms total)
T0E4C 000:708 JLINK_IsHalted() -- CPU_ReadMem(2 bytes @ 0x20000000)  returns TRUE (0005ms, 0639ms total)
T0E4C 000:713 JLINK_ReadReg(R15 (PC))  returns 0x20000000 (0000ms, 0634ms total)
T0E4C 000:713 JLINK_ClrBPEx(BPHandle = 0x00000001)  returns 0x00 (0000ms, 0634ms total)
T0E4C 000:713 JLINK_ReadReg(R0)  returns 0x00000000 (0000ms, 0634ms total)
T0E4C 000:714 JLINK_WriteReg(R0, 0x00018000)  returns 0x00 (0000ms, 0634ms total)
T0E4C 000:714 JLINK_WriteReg(R1, 0x00000400)  returns 0x00 (0000ms, 0634ms total)
T0E4C 000:714 JLINK_WriteReg(R2, 0x000000FF)  returns 0x00 (0000ms, 0634ms total)
T0E4C 000:714 JLINK_WriteReg(R3, 0x00000000)  returns 0x00 (0000ms, 0634ms total)
T0E4C 000:714 JLINK_WriteReg(R4, 0x00000000)  returns 0x00 (0000ms, 0634ms total)
T0E4C 000:714 JLINK_WriteReg(R5, 0x00000000)  returns 0x00 (0000ms, 0634ms total)
T0E4C 000:714 JLINK_WriteReg(R6, 0x00000000)  returns 0x00 (0000ms, 0634ms total)
T0E4C 000:714 JLINK_WriteReg(R7, 0x00000000)  returns 0x00 (0000ms, 0634ms total)
T0E4C 000:714 JLINK_WriteReg(R8, 0x00000000)  returns 0x00 (0000ms, 0634ms total)
T0E4C 000:714 JLINK_WriteReg(R9, 0x20000474)  returns 0x00 (0000ms, 0634ms total)
T0E4C 000:714 JLINK_WriteReg(R10, 0x00000000)  returns 0x00 (0000ms, 0634ms total)
T0E4C 000:714 JLINK_WriteReg(R11, 0x00000000)  returns 0x00 (0000ms, 0634ms total)
T0E4C 000:714 JLINK_WriteReg(R12, 0x00000000)  returns 0x00 (0000ms, 0634ms total)
T0E4C 000:714 JLINK_WriteReg(R13 (SP), 0x20001000)  returns 0x00 (0000ms, 0634ms total)
T0E4C 000:714 JLINK_WriteReg(R14, 0x20000001)  returns 0x00 (0000ms, 0634ms total)
T0E4C 000:714 JLINK_WriteReg(R15 (PC), 0x20000188)  returns 0x00 (0000ms, 0634ms total)
T0E4C 000:714 JLINK_WriteReg(XPSR, 0x01000000)  returns 0x00 (0000ms, 0634ms total)
T0E4C 000:714 JLINK_WriteReg(MSP, 0x20001000)  returns 0x00 (0000ms, 0634ms total)
T0E4C 000:714 JLINK_WriteReg(PSP, 0x20001000)  returns 0x00 (0000ms, 0634ms total)
T0E4C 000:714 JLINK_WriteReg(CFBP, 0x00000000)  returns 0x00 (0000ms, 0634ms total)
T0E4C 000:714 JLINK_SetBPEx(Addr = 0x20000000, Type = 0xFFFFFFF2)  returns 0x00000002 (0000ms, 0634ms total)
T0E4C 000:714 JLINK_Go() -- CPU_ReadMem(4 bytes @ 0xE0001000) -- CPU_WriteMem(4 bytes @ 0xE0001000) (0004ms, 0638ms total)
T0E4C 000:718 JLINK_IsHalted() -- CPU_ReadMem(2 bytes @ 0x20000000)  returns TRUE (0004ms, 0642ms total)
T0E4C 000:722 JLINK_ReadReg(R15 (PC))  returns 0x20000000 (0000ms, 0638ms total)
T0E4C 000:722 JLINK_ClrBPEx(BPHandle = 0x00000002)  returns 0x00 (0000ms, 0638ms total)
T0E4C 000:722 JLINK_ReadReg(R0)  returns 0x00000001 (0000ms, 0638ms total)
T0E4C 000:722 JLINK_WriteReg(R0, 0x00018000)  returns 0x00 (0000ms, 0638ms total)
T0E4C 000:722 JLINK_WriteReg(R1, 0x00000400)  returns 0x00 (0000ms, 0638ms total)
T0E4C 000:722 JLINK_WriteReg(R2, 0x000000FF)  returns 0x00 (0000ms, 0638ms total)
T0E4C 000:722 JLINK_WriteReg(R3, 0x00000000)  returns 0x00 (0000ms, 0638ms total)
T0E4C 000:722 JLINK_WriteReg(R4, 0x00000000)  returns 0x00 (0000ms, 0638ms total)
T0E4C 000:722 JLINK_WriteReg(R5, 0x00000000)  returns 0x00 (0000ms, 0638ms total)
T0E4C 000:722 JLINK_WriteReg(R6, 0x00000000)  returns 0x00 (0000ms, 0638ms total)
T0E4C 000:722 JLINK_WriteReg(R7, 0x00000000)  returns 0x00 (0000ms, 0638ms total)
T0E4C 000:722 JLINK_WriteReg(R8, 0x00000000)  returns 0x00 (0000ms, 0638ms total)
T0E4C 000:722 JLINK_WriteReg(R9, 0x20000474)  returns 0x00 (0000ms, 0638ms total)
T0E4C 000:722 JLINK_WriteReg(R10, 0x00000000)  returns 0x00 (0000ms, 0638ms total)
T0E4C 000:722 JLINK_WriteReg(R11, 0x00000000)  returns 0x00 (0000ms, 0638ms total)
T0E4C 000:722 JLINK_WriteReg(R12, 0x00000000)  returns 0x00 (0000ms, 0638ms total)
T0E4C 000:722 JLINK_WriteReg(R13 (SP), 0x20001000)  returns 0x00 (0000ms, 0638ms total)
T0E4C 000:722 JLINK_WriteReg(R14, 0x20000001)  returns 0x00 (0000ms, 0638ms total)
T0E4C 000:722 JLINK_WriteReg(R15 (PC), 0x20000104)  returns 0x00 (0001ms, 0639ms total)
T0E4C 000:723 JLINK_WriteReg(XPSR, 0x01000000)  returns 0x00 (0000ms, 0639ms total)
T0E4C 000:723 JLINK_WriteReg(MSP, 0x20001000)  returns 0x00 (0000ms, 0639ms total)
T0E4C 000:723 JLINK_WriteReg(PSP, 0x20001000)  returns 0x00 (0000ms, 0639ms total)
T0E4C 000:723 JLINK_WriteReg(CFBP, 0x00000000)  returns 0x00 (0000ms, 0639ms total)
T0E4C 000:723 JLINK_SetBPEx(Addr = 0x20000000, Type = 0xFFFFFFF2)  returns 0x00000003 (0000ms, 0639ms total)
T0E4C 000:723 JLINK_Go() -- CPU_ReadMem(4 bytes @ 0xE0001000) -- CPU_WriteMem(4 bytes @ 0xE0001000) (0002ms, 0641ms total)
T0E4C 000:725 JLINK_IsHalted()  returns FALSE (0001ms, 0642ms total)
T0E4C 000:767 JLINK_IsHalted() -- CPU_ReadMem(2 bytes @ 0x20000000)  returns TRUE (0005ms, 0646ms total)
T0E4C 000:772 JLINK_ReadReg(R15 (PC))  returns 0x20000000 (0000ms, 0641ms total)
T0E4C 000:772 JLINK_ClrBPEx(BPHandle = 0x00000003)  returns 0x00 (0000ms, 0641ms total)
T0E4C 000:772 JLINK_ReadReg(R0)  returns 0x00000000 (0000ms, 0641ms total)
T0E4C 000:772 JLINK_WriteReg(R0, 0x00018400)  returns 0x00 (0000ms, 0641ms total)
T0E4C 000:772 JLINK_WriteReg(R1, 0x00000400)  returns 0x00 (0001ms, 0642ms total)
T0E4C 000:773 JLINK_WriteReg(R2, 0x000000FF)  returns 0x00 (0000ms, 0642ms total)
T0E4C 000:773 JLINK_WriteReg(R3, 0x00000000)  returns 0x00 (0000ms, 0642ms total)
T0E4C 000:773 JLINK_WriteReg(R4, 0x00000000)  returns 0x00 (0000ms, 0642ms total)
T0E4C 000:773 JLINK_WriteReg(R5, 0x00000000)  returns 0x00 (0000ms, 0642ms total)
T0E4C 000:773 JLINK_WriteReg(R6, 0x00000000)  returns 0x00 (0000ms, 0642ms total)
T0E4C 000:773 JLINK_WriteReg(R7, 0x00000000)  returns 0x00 (0000ms, 0642ms total)
T0E4C 000:773 JLINK_WriteReg(R8, 0x00000000)  returns 0x00 (0000ms, 0642ms total)
T0E4C 000:773 JLINK_WriteReg(R9, 0x20000474)  returns 0x00 (0000ms, 0642ms total)
T0E4C 000:773 JLINK_WriteReg(R10, 0x00000000)  returns 0x00 (0000ms, 0642ms total)
T0E4C 000:773 JLINK_WriteReg(R11, 0x00000000)  returns 0x00 (0000ms, 0642ms total)
T0E4C 000:773 JLINK_WriteReg(R12, 0x00000000)  returns 0x00 (0000ms, 0642ms total)
T0E4C 000:773 JLINK_WriteReg(R13 (SP), 0x20001000)  returns 0x00 (0000ms, 0642ms total)
T0E4C 000:773 JLINK_WriteReg(R14, 0x20000001)  returns 0x00 (0000ms, 0642ms total)
T0E4C 000:773 JLINK_WriteReg(R15 (PC), 0x20000188)  returns 0x00 (0000ms, 0642ms total)
T0E4C 000:773 JLINK_WriteReg(XPSR, 0x01000000)  returns 0x00 (0000ms, 0642ms total)
T0E4C 000:773 JLINK_WriteReg(MSP, 0x20001000)  returns 0x00 (0000ms, 0642ms total)
T0E4C 000:773 JLINK_WriteReg(PSP, 0x20001000)  returns 0x00 (0000ms, 0642ms total)
T0E4C 000:773 JLINK_WriteReg(CFBP, 0x00000000)  returns 0x00 (0000ms, 0642ms total)
T0E4C 000:773 JLINK_SetBPEx(Addr = 0x20000000, Type = 0xFFFFFFF2)  returns 0x00000004 (0000ms, 0642ms total)
T0E4C 000:773 JLINK_Go() -- CPU_ReadMem(4 bytes @ 0xE0001000) -- CPU_WriteMem(4 bytes @ 0xE0001000) (0004ms, 0646ms total)
T0E4C 000:777 JLINK_IsHalted() -- CPU_ReadMem(2 bytes @ 0x20000000)  returns TRUE (0005ms, 0651ms total)
T0E4C 000:782 JLINK_ReadReg(R15 (PC))  returns 0x20000000 (0000ms, 0646ms total)
T0E4C 000:782 JLINK_ClrBPEx(BPHandle = 0x00000004)  returns 0x00 (0000ms, 0646ms total)
T0E4C 000:782 JLINK_ReadReg(R0)  returns 0x00000001 (0000ms, 0646ms total)
T0E4C 000:782 JLINK_WriteReg(R0, 0x00018400)  returns 0x00 (0000ms, 0646ms total)
T0E4C 000:782 JLINK_WriteReg(R1, 0x00000400)  returns 0x00 (0000ms, 0646ms total)
T0E4C 000:782 JLINK_WriteReg(R2, 0x000000FF)  returns 0x00 (0000ms, 0646ms total)
T0E4C 000:782 JLINK_WriteReg(R3, 0x00000000)  returns 0x00 (0000ms, 0646ms total)
T0E4C 000:782 JLINK_WriteReg(R4, 0x00000000)  returns 0x00 (0000ms, 0646ms total)
T0E4C 000:782 JLINK_WriteReg(R5, 0x00000000)  returns 0x00 (0000ms, 0646ms total)
T0E4C 000:782 JLINK_WriteReg(R6, 0x00000000)  returns 0x00 (0000ms, 0646ms total)
T0E4C 000:782 JLINK_WriteReg(R7, 0x00000000)  returns 0x00 (0000ms, 0646ms total)
T0E4C 000:782 JLINK_WriteReg(R8, 0x00000000)  returns 0x00 (0000ms, 0646ms total)
T0E4C 000:782 JLINK_WriteReg(R9, 0x20000474)  returns 0x00 (0000ms, 0646ms total)
T0E4C 000:782 JLINK_WriteReg(R10, 0x00000000)  returns 0x00 (0000ms, 0646ms total)
T0E4C 000:782 JLINK_WriteReg(R11, 0x00000000)  returns 0x00 (0000ms, 0646ms total)
T0E4C 000:782 JLINK_WriteReg(R12, 0x00000000)  returns 0x00 (0000ms, 0646ms total)
T0E4C 000:782 JLINK_WriteReg(R13 (SP), 0x20001000)  returns 0x00 (0000ms, 0646ms total)
T0E4C 000:782 JLINK_WriteReg(R14, 0x20000001)  returns 0x00 (0000ms, 0646ms total)
T0E4C 000:782 JLINK_WriteReg(R15 (PC), 0x20000104)  returns 0x00 (0000ms, 0646ms total)
T0E4C 000:782 JLINK_WriteReg(XPSR, 0x01000000)  returns 0x00 (0000ms, 0646ms total)
T0E4C 000:782 JLINK_WriteReg(MSP, 0x20001000)  returns 0x00 (0000ms, 0646ms total)
T0E4C 000:782 JLINK_WriteReg(PSP, 0x20001000)  returns 0x00 (0000ms, 0646ms total)
T0E4C 000:782 JLINK_WriteReg(CFBP, 0x00000000)  returns 0x00 (0000ms, 0646ms total)
T0E4C 000:782 JLINK_SetBPEx(Addr = 0x20000000, Type = 0xFFFFFFF2)  returns 0x00000005 (0000ms, 0646ms total)
T0E4C 000:782 JLINK_Go() -- CPU_ReadMem(4 bytes @ 0xE0001000) -- CPU_WriteMem(4 bytes @ 0xE0001000) (0003ms, 0649ms total)
T0E4C 000:785 JLINK_IsHalted()  returns FALSE (0000ms, 0649ms total)
T0E4C 000:789 JLINK_IsHalted()  returns FALSE (0001ms, 0650ms total)
T0E4C 000:791 JLINK_IsHalted()  returns FALSE (0001ms, 0650ms total)
T0E4C 000:793 JLINK_IsHalted()  returns FALSE (0001ms, 0650ms total)
T0E4C 000:795 JLINK_IsHalted()  returns FALSE (0001ms, 0650ms total)
T0E4C 000:797 JLINK_IsHalted()  returns FALSE (0001ms, 0650ms total)
T0E4C 000:799 JLINK_IsHalted()  returns FALSE (0001ms, 0650ms total)
T0E4C 000:801 JLINK_IsHalted()  returns FALSE (0000ms, 0649ms total)
T0E4C 000:803 JLINK_IsHalted()  returns FALSE (0000ms, 0649ms total)
T0E4C 000:805 JLINK_IsHalted()  returns FALSE (0000ms, 0649ms total)
T0E4C 000:807 JLINK_IsHalted() -- CPU_ReadMem(2 bytes @ 0x20000000)  returns TRUE (0004ms, 0653ms total)
T0E4C 000:811 JLINK_ReadReg(R15 (PC))  returns 0x20000000 (0000ms, 0649ms total)
T0E4C 000:811 JLINK_ClrBPEx(BPHandle = 0x00000005)  returns 0x00 (0000ms, 0649ms total)
T0E4C 000:811 JLINK_ReadReg(R0)  returns 0x00000000 (0000ms, 0649ms total)
T0E4C 000:812 JLINK_WriteReg(R0, 0x00018800)  returns 0x00 (0000ms, 0649ms total)
T0E4C 000:812 JLINK_WriteReg(R1, 0x00000400)  returns 0x00 (0000ms, 0649ms total)
T0E4C 000:812 JLINK_WriteReg(R2, 0x000000FF)  returns 0x00 (0000ms, 0649ms total)
T0E4C 000:812 JLINK_WriteReg(R3, 0x00000000)  returns 0x00 (0000ms, 0649ms total)
T0E4C 000:812 JLINK_WriteReg(R4, 0x00000000)  returns 0x00 (0000ms, 0649ms total)
T0E4C 000:812 JLINK_WriteReg(R5, 0x00000000)  returns 0x00 (0000ms, 0649ms total)
T0E4C 000:812 JLINK_WriteReg(R6, 0x00000000)  returns 0x00 (0000ms, 0649ms total)
T0E4C 000:812 JLINK_WriteReg(R7, 0x00000000)  returns 0x00 (0000ms, 0649ms total)
T0E4C 000:812 JLINK_WriteReg(R8, 0x00000000)  returns 0x00 (0000ms, 0649ms total)
T0E4C 000:812 JLINK_WriteReg(R9, 0x20000474)  returns 0x00 (0000ms, 0649ms total)
T0E4C 000:812 JLINK_WriteReg(R10, 0x00000000)  returns 0x00 (0000ms, 0649ms total)
T0E4C 000:812 JLINK_WriteReg(R11, 0x00000000)  returns 0x00 (0000ms, 0649ms total)
T0E4C 000:812 JLINK_WriteReg(R12, 0x00000000)  returns 0x00 (0000ms, 0649ms total)
T0E4C 000:812 JLINK_WriteReg(R13 (SP), 0x20001000)  returns 0x00 (0000ms, 0649ms total)
T0E4C 000:812 JLINK_WriteReg(R14, 0x20000001)  returns 0x00 (0000ms, 0649ms total)
T0E4C 000:812 JLINK_WriteReg(R15 (PC), 0x20000188)  returns 0x00 (0000ms, 0649ms total)
T0E4C 000:812 JLINK_WriteReg(XPSR, 0x01000000)  returns 0x00 (0000ms, 0649ms total)
T0E4C 000:812 JLINK_WriteReg(MSP, 0x20001000)  returns 0x00 (0000ms, 0649ms total)
T0E4C 000:812 JLINK_WriteReg(PSP, 0x20001000)  returns 0x00 (0000ms, 0649ms total)
T0E4C 000:812 JLINK_WriteReg(CFBP, 0x00000000)  returns 0x00 (0000ms, 0649ms total)
T0E4C 000:812 JLINK_SetBPEx(Addr = 0x20000000, Type = 0xFFFFFFF2)  returns 0x00000006 (0000ms, 0649ms total)
T0E4C 000:812 JLINK_Go() -- CPU_ReadMem(4 bytes @ 0xE0001000) -- CPU_WriteMem(4 bytes @ 0xE0001000) (0003ms, 0652ms total)
T0E4C 000:815 JLINK_IsHalted() -- CPU_ReadMem(2 bytes @ 0x20000000)  returns TRUE (0005ms, 0657ms total)
T0E4C 000:820 JLINK_ReadReg(R15 (PC))  returns 0x20000000 (0000ms, 0652ms total)
T0E4C 000:820 JLINK_ClrBPEx(BPHandle = 0x00000006)  returns 0x00 (0000ms, 0652ms total)
T0E4C 000:820 JLINK_ReadReg(R0)  returns 0x00000001 (0000ms, 0652ms total)
T0E4C 000:820 JLINK_WriteReg(R0, 0x00018800)  returns 0x00 (0000ms, 0652ms total)
T0E4C 000:820 JLINK_WriteReg(R1, 0x00000400)  returns 0x00 (0000ms, 0652ms total)
T0E4C 000:820 JLINK_WriteReg(R2, 0x000000FF)  returns 0x00 (0000ms, 0652ms total)
T0E4C 000:820 JLINK_WriteReg(R3, 0x00000000)  returns 0x00 (0000ms, 0652ms total)
T0E4C 000:820 JLINK_WriteReg(R4, 0x00000000)  returns 0x00 (0000ms, 0652ms total)
T0E4C 000:820 JLINK_WriteReg(R5, 0x00000000)  returns 0x00 (0000ms, 0652ms total)
T0E4C 000:820 JLINK_WriteReg(R6, 0x00000000)  returns 0x00 (0000ms, 0652ms total)
T0E4C 000:820 JLINK_WriteReg(R7, 0x00000000)  returns 0x00 (0000ms, 0652ms total)
T0E4C 000:820 JLINK_WriteReg(R8, 0x00000000)  returns 0x00 (0000ms, 0652ms total)
T0E4C 000:820 JLINK_WriteReg(R9, 0x20000474)  returns 0x00 (0000ms, 0652ms total)
T0E4C 000:820 JLINK_WriteReg(R10, 0x00000000)  returns 0x00 (0000ms, 0652ms total)
T0E4C 000:820 JLINK_WriteReg(R11, 0x00000000)  returns 0x00 (0000ms, 0652ms total)
T0E4C 000:820 JLINK_WriteReg(R12, 0x00000000)  returns 0x00 (0000ms, 0652ms total)
T0E4C 000:820 JLINK_WriteReg(R13 (SP), 0x20001000)  returns 0x00 (0000ms, 0652ms total)
T0E4C 000:820 JLINK_WriteReg(R14, 0x20000001)  returns 0x00 (0000ms, 0652ms total)
T0E4C 000:820 JLINK_WriteReg(R15 (PC), 0x20000104)  returns 0x00 (0000ms, 0652ms total)
T0E4C 000:820 JLINK_WriteReg(XPSR, 0x01000000)  returns 0x00 (0000ms, 0652ms total)
T0E4C 000:820 JLINK_WriteReg(MSP, 0x20001000)  returns 0x00 (0000ms, 0652ms total)
T0E4C 000:820 JLINK_WriteReg(PSP, 0x20001000)  returns 0x00 (0000ms, 0652ms total)
T0E4C 000:820 JLINK_WriteReg(CFBP, 0x00000000)  returns 0x00 (0000ms, 0652ms total)
T0E4C 000:820 JLINK_SetBPEx(Addr = 0x20000000, Type = 0xFFFFFFF2)  returns 0x00000007 (0000ms, 0652ms total)
T0E4C 000:820 JLINK_Go() -- CPU_ReadMem(4 bytes @ 0xE0001000) -- CPU_WriteMem(4 bytes @ 0xE0001000) (0003ms, 0655ms total)
T0E4C 000:823 JLINK_IsHalted()  returns FALSE (0000ms, 0655ms total)
T0E4C 000:833 JLINK_IsHalted()  returns FALSE (0000ms, 0655ms total)
T0E4C 000:834 JLINK_IsHalted()  returns FALSE (0001ms, 0656ms total)
T0E4C 000:836 JLINK_IsHalted()  returns FALSE (0001ms, 0656ms total)
T0E4C 000:838 JLINK_IsHalted()  returns FALSE (0001ms, 0656ms total)
T0E4C 000:841 JLINK_IsHalted()  returns FALSE (0000ms, 0655ms total)
T0E4C 000:843 JLINK_IsHalted()  returns FALSE (0000ms, 0655ms total)
T0E4C 000:844 JLINK_IsHalted() -- CPU_ReadMem(2 bytes @ 0x20000000)  returns TRUE (0005ms, 0660ms total)
T0E4C 000:849 JLINK_ReadReg(R15 (PC))  returns 0x20000000 (0000ms, 0655ms total)
T0E4C 000:849 JLINK_ClrBPEx(BPHandle = 0x00000007)  returns 0x00 (0000ms, 0655ms total)
T0E4C 000:849 JLINK_ReadReg(R0)  returns 0x00000000 (0000ms, 0655ms total)
T0E4C 000:849 JLINK_WriteReg(R0, 0x00018C00)  returns 0x00 (0000ms, 0655ms total)
T0E4C 000:849 JLINK_WriteReg(R1, 0x00000400)  returns 0x00 (0000ms, 0655ms total)
T0E4C 000:849 JLINK_WriteReg(R2, 0x000000FF)  returns 0x00 (0000ms, 0655ms total)
T0E4C 000:849 JLINK_WriteReg(R3, 0x00000000)  returns 0x00 (0000ms, 0655ms total)
T0E4C 000:849 JLINK_WriteReg(R4, 0x00000000)  returns 0x00 (0000ms, 0655ms total)
T0E4C 000:849 JLINK_WriteReg(R5, 0x00000000)  returns 0x00 (0000ms, 0655ms total)
T0E4C 000:849 JLINK_WriteReg(R6, 0x00000000)  returns 0x00 (0000ms, 0655ms total)
T0E4C 000:849 JLINK_WriteReg(R7, 0x00000000)  returns 0x00 (0000ms, 0655ms total)
T0E4C 000:849 JLINK_WriteReg(R8, 0x00000000)  returns 0x00 (0000ms, 0655ms total)
T0E4C 000:849 JLINK_WriteReg(R9, 0x20000474)  returns 0x00 (0000ms, 0655ms total)
T0E4C 000:849 JLINK_WriteReg(R10, 0x00000000)  returns 0x00 (0000ms, 0655ms total)
T0E4C 000:849 JLINK_WriteReg(R11, 0x00000000)  returns 0x00 (0000ms, 0655ms total)
T0E4C 000:849 JLINK_WriteReg(R12, 0x00000000)  returns 0x00 (0000ms, 0655ms total)
T0E4C 000:849 JLINK_WriteReg(R13 (SP), 0x20001000)  returns 0x00 (0000ms, 0655ms total)
T0E4C 000:849 JLINK_WriteReg(R14, 0x20000001)  returns 0x00 (0000ms, 0655ms total)
T0E4C 000:849 JLINK_WriteReg(R15 (PC), 0x20000188)  returns 0x00 (0000ms, 0655ms total)
T0E4C 000:849 JLINK_WriteReg(XPSR, 0x01000000)  returns 0x00 (0000ms, 0655ms total)
T0E4C 000:849 JLINK_WriteReg(MSP, 0x20001000)  returns 0x00 (0000ms, 0655ms total)
T0E4C 000:849 JLINK_WriteReg(PSP, 0x20001000)  returns 0x00 (0000ms, 0655ms total)
T0E4C 000:849 JLINK_WriteReg(CFBP, 0x00000000)  returns 0x00 (0000ms, 0655ms total)
T0E4C 000:849 JLINK_SetBPEx(Addr = 0x20000000, Type = 0xFFFFFFF2)  returns 0x00000008 (0001ms, 0656ms total)
T0E4C 000:850 JLINK_Go() -- CPU_ReadMem(4 bytes @ 0xE0001000) -- CPU_WriteMem(4 bytes @ 0xE0001000) (0003ms, 0659ms total)
T0E4C 000:853 JLINK_IsHalted() -- CPU_ReadMem(2 bytes @ 0x20000000)  returns TRUE (0004ms, 0663ms total)
T0E4C 000:857 JLINK_ReadReg(R15 (PC))  returns 0x20000000 (0000ms, 0659ms total)
T0E4C 000:857 JLINK_ClrBPEx(BPHandle = 0x00000008)  returns 0x00 (0000ms, 0659ms total)
T0E4C 000:857 JLINK_ReadReg(R0)  returns 0x00000001 (0000ms, 0659ms total)
T0E4C 000:857 JLINK_WriteReg(R0, 0x00018C00)  returns 0x00 (0000ms, 0659ms total)
T0E4C 000:857 JLINK_WriteReg(R1, 0x00000400)  returns 0x00 (0000ms, 0659ms total)
T0E4C 000:857 JLINK_WriteReg(R2, 0x000000FF)  returns 0x00 (0000ms, 0659ms total)
T0E4C 000:857 JLINK_WriteReg(R3, 0x00000000)  returns 0x00 (0000ms, 0659ms total)
T0E4C 000:857 JLINK_WriteReg(R4, 0x00000000)  returns 0x00 (0000ms, 0659ms total)
T0E4C 000:857 JLINK_WriteReg(R5, 0x00000000)  returns 0x00 (0000ms, 0659ms total)
T0E4C 000:857 JLINK_WriteReg(R6, 0x00000000)  returns 0x00 (0000ms, 0659ms total)
T0E4C 000:857 JLINK_WriteReg(R7, 0x00000000)  returns 0x00 (0000ms, 0659ms total)
T0E4C 000:857 JLINK_WriteReg(R8, 0x00000000)  returns 0x00 (0000ms, 0659ms total)
T0E4C 000:857 JLINK_WriteReg(R9, 0x20000474)  returns 0x00 (0000ms, 0659ms total)
T0E4C 000:857 JLINK_WriteReg(R10, 0x00000000)  returns 0x00 (0000ms, 0659ms total)
T0E4C 000:857 JLINK_WriteReg(R11, 0x00000000)  returns 0x00 (0000ms, 0659ms total)
T0E4C 000:857 JLINK_WriteReg(R12, 0x00000000)  returns 0x00 (0000ms, 0659ms total)
T0E4C 000:857 JLINK_WriteReg(R13 (SP), 0x20001000)  returns 0x00 (0000ms, 0659ms total)
T0E4C 000:857 JLINK_WriteReg(R14, 0x20000001)  returns 0x00 (0000ms, 0659ms total)
T0E4C 000:857 JLINK_WriteReg(R15 (PC), 0x20000104)  returns 0x00 (0000ms, 0659ms total)
T0E4C 000:857 JLINK_WriteReg(XPSR, 0x01000000)  returns 0x00 (0000ms, 0659ms total)
T0E4C 000:857 JLINK_WriteReg(MSP, 0x20001000)  returns 0x00 (0000ms, 0659ms total)
T0E4C 000:857 JLINK_WriteReg(PSP, 0x20001000)  returns 0x00 (0000ms, 0659ms total)
T0E4C 000:857 JLINK_WriteReg(CFBP, 0x00000000)  returns 0x00 (0000ms, 0659ms total)
T0E4C 000:857 JLINK_SetBPEx(Addr = 0x20000000, Type = 0xFFFFFFF2)  returns 0x00000009 (0000ms, 0659ms total)
T0E4C 000:857 JLINK_Go() -- CPU_ReadMem(4 bytes @ 0xE0001000) -- CPU_WriteMem(4 bytes @ 0xE0001000) (0003ms, 0662ms total)
T0E4C 000:860 JLINK_IsHalted()  returns FALSE (0000ms, 0662ms total)
T0E4C 000:865 JLINK_IsHalted()  returns FALSE (0001ms, 0663ms total)
T0E4C 000:867 JLINK_IsHalted()  returns FALSE (0001ms, 0663ms total)
T0E4C 000:869 JLINK_IsHalted()  returns FALSE (0001ms, 0663ms total)
T0E4C 000:871 JLINK_IsHalted()  returns FALSE (0001ms, 0663ms total)
T0E4C 000:873 JLINK_IsHalted()  returns FALSE (0001ms, 0663ms total)
T0E4C 000:875 JLINK_IsHalted()  returns FALSE (0001ms, 0663ms total)
T0E4C 000:879 JLINK_IsHalted()  returns FALSE (0001ms, 0663ms total)
T0E4C 000:881 JLINK_IsHalted() -- CPU_ReadMem(2 bytes @ 0x20000000)  returns TRUE (0005ms, 0667ms total)
T0E4C 000:886 JLINK_ReadReg(R15 (PC))  returns 0x20000000 (0000ms, 0662ms total)
T0E4C 000:886 JLINK_ClrBPEx(BPHandle = 0x00000009)  returns 0x00 (0000ms, 0662ms total)
T0E4C 000:886 JLINK_ReadReg(R0)  returns 0x00000000 (0000ms, 0662ms total)
T0E4C 000:886 JLINK_WriteReg(R0, 0x00019000)  returns 0x00 (0000ms, 0662ms total)
T0E4C 000:886 JLINK_WriteReg(R1, 0x00000400)  returns 0x00 (0000ms, 0662ms total)
T0E4C 000:886 JLINK_WriteReg(R2, 0x000000FF)  returns 0x00 (0000ms, 0662ms total)
T0E4C 000:886 JLINK_WriteReg(R3, 0x00000000)  returns 0x00 (0000ms, 0662ms total)
T0E4C 000:886 JLINK_WriteReg(R4, 0x00000000)  returns 0x00 (0000ms, 0662ms total)
T0E4C 000:886 JLINK_WriteReg(R5, 0x00000000)  returns 0x00 (0000ms, 0662ms total)
T0E4C 000:886 JLINK_WriteReg(R6, 0x00000000)  returns 0x00 (0000ms, 0662ms total)
T0E4C 000:886 JLINK_WriteReg(R7, 0x00000000)  returns 0x00 (0000ms, 0662ms total)
T0E4C 000:886 JLINK_WriteReg(R8, 0x00000000)  returns 0x00 (0000ms, 0662ms total)
T0E4C 000:886 JLINK_WriteReg(R9, 0x20000474)  returns 0x00 (0000ms, 0662ms total)
T0E4C 000:886 JLINK_WriteReg(R10, 0x00000000)  returns 0x00 (0000ms, 0662ms total)
T0E4C 000:886 JLINK_WriteReg(R11, 0x00000000)  returns 0x00 (0000ms, 0662ms total)
T0E4C 000:886 JLINK_WriteReg(R12, 0x00000000)  returns 0x00 (0000ms, 0662ms total)
T0E4C 000:886 JLINK_WriteReg(R13 (SP), 0x20001000)  returns 0x00 (0000ms, 0662ms total)
T0E4C 000:886 JLINK_WriteReg(R14, 0x20000001)  returns 0x00 (0000ms, 0662ms total)
T0E4C 000:886 JLINK_WriteReg(R15 (PC), 0x20000188)  returns 0x00 (0000ms, 0662ms total)
T0E4C 000:886 JLINK_WriteReg(XPSR, 0x01000000)  returns 0x00 (0000ms, 0662ms total)
T0E4C 000:886 JLINK_WriteReg(MSP, 0x20001000)  returns 0x00 (0000ms, 0662ms total)
T0E4C 000:886 JLINK_WriteReg(PSP, 0x20001000)  returns 0x00 (0000ms, 0662ms total)
T0E4C 000:886 JLINK_WriteReg(CFBP, 0x00000000)  returns 0x00 (0000ms, 0662ms total)
T0E4C 000:887 JLINK_SetBPEx(Addr = 0x20000000, Type = 0xFFFFFFF2)  returns 0x0000000A (0000ms, 0663ms total)
T0E4C 000:887 JLINK_Go() -- CPU_ReadMem(4 bytes @ 0xE0001000) -- CPU_WriteMem(4 bytes @ 0xE0001000) (0003ms, 0666ms total)
T0E4C 000:890 JLINK_IsHalted() -- CPU_ReadMem(2 bytes @ 0x20000000)  returns TRUE (0004ms, 0670ms total)
T0E4C 000:894 JLINK_ReadReg(R15 (PC))  returns 0x20000000 (0000ms, 0666ms total)
T0E4C 000:894 JLINK_ClrBPEx(BPHandle = 0x0000000A)  returns 0x00 (0000ms, 0666ms total)
T0E4C 000:894 JLINK_ReadReg(R0)  returns 0x00000001 (0000ms, 0666ms total)
T0E4C 000:894 JLINK_WriteReg(R0, 0x00019000)  returns 0x00 (0000ms, 0666ms total)
T0E4C 000:894 JLINK_WriteReg(R1, 0x00000400)  returns 0x00 (0000ms, 0666ms total)
T0E4C 000:894 JLINK_WriteReg(R2, 0x000000FF)  returns 0x00 (0000ms, 0666ms total)
T0E4C 000:894 JLINK_WriteReg(R3, 0x00000000)  returns 0x00 (0000ms, 0666ms total)
T0E4C 000:894 JLINK_WriteReg(R4, 0x00000000)  returns 0x00 (0000ms, 0666ms total)
T0E4C 000:894 JLINK_WriteReg(R5, 0x00000000)  returns 0x00 (0000ms, 0666ms total)
T0E4C 000:894 JLINK_WriteReg(R6, 0x00000000)  returns 0x00 (0000ms, 0666ms total)
T0E4C 000:894 JLINK_WriteReg(R7, 0x00000000)  returns 0x00 (0000ms, 0666ms total)
T0E4C 000:894 JLINK_WriteReg(R8, 0x00000000)  returns 0x00 (0000ms, 0666ms total)
T0E4C 000:894 JLINK_WriteReg(R9, 0x20000474)  returns 0x00 (0000ms, 0666ms total)
T0E4C 000:894 JLINK_WriteReg(R10, 0x00000000)  returns 0x00 (0000ms, 0666ms total)
T0E4C 000:894 JLINK_WriteReg(R11, 0x00000000)  returns 0x00 (0000ms, 0666ms total)
T0E4C 000:894 JLINK_WriteReg(R12, 0x00000000)  returns 0x00 (0000ms, 0666ms total)
T0E4C 000:894 JLINK_WriteReg(R13 (SP), 0x20001000)  returns 0x00 (0000ms, 0666ms total)
T0E4C 000:894 JLINK_WriteReg(R14, 0x20000001)  returns 0x00 (0000ms, 0666ms total)
T0E4C 000:894 JLINK_WriteReg(R15 (PC), 0x20000104)  returns 0x00 (0000ms, 0666ms total)
T0E4C 000:894 JLINK_WriteReg(XPSR, 0x01000000)  returns 0x00 (0000ms, 0666ms total)
T0E4C 000:894 JLINK_WriteReg(MSP, 0x20001000)  returns 0x00 (0000ms, 0666ms total)
T0E4C 000:894 JLINK_WriteReg(PSP, 0x20001000)  returns 0x00 (0000ms, 0666ms total)
T0E4C 000:894 JLINK_WriteReg(CFBP, 0x00000000)  returns 0x00 (0000ms, 0666ms total)
T0E4C 000:894 JLINK_SetBPEx(Addr = 0x20000000, Type = 0xFFFFFFF2)  returns 0x0000000B (0000ms, 0666ms total)
T0E4C 000:894 JLINK_Go() -- CPU_ReadMem(4 bytes @ 0xE0001000) -- CPU_WriteMem(4 bytes @ 0xE0001000) (0003ms, 0669ms total)
T0E4C 000:897 JLINK_IsHalted()  returns FALSE (0001ms, 0670ms total)
T0E4C 000:899 JLINK_IsHalted()  returns FALSE (0001ms, 0670ms total)
T0E4C 000:901 JLINK_IsHalted()  returns FALSE (0001ms, 0670ms total)
T0E4C 000:903 JLINK_IsHalted()  returns FALSE (0000ms, 0669ms total)
T0E4C 000:905 JLINK_IsHalted()  returns FALSE (0000ms, 0669ms total)
T0E4C 000:907 JLINK_IsHalted()  returns FALSE (0000ms, 0669ms total)
T0E4C 000:909 JLINK_IsHalted()  returns FALSE (0000ms, 0669ms total)
T0E4C 000:911 JLINK_IsHalted()  returns FALSE (0000ms, 0669ms total)
T0E4C 000:913 JLINK_IsHalted()  returns FALSE (0000ms, 0669ms total)
T0E4C 000:915 JLINK_IsHalted()  returns FALSE (0000ms, 0669ms total)
T0E4C 000:917 JLINK_IsHalted()  returns FALSE (0000ms, 0669ms total)
T0E4C 000:919 JLINK_IsHalted() -- CPU_ReadMem(2 bytes @ 0x20000000)  returns TRUE (0004ms, 0673ms total)
T0E4C 000:923 JLINK_ReadReg(R15 (PC))  returns 0x20000000 (0000ms, 0669ms total)
T0E4C 000:923 JLINK_ClrBPEx(BPHandle = 0x0000000B)  returns 0x00 (0000ms, 0669ms total)
T0E4C 000:923 JLINK_ReadReg(R0)  returns 0x00000000 (0000ms, 0669ms total)
T0E4C 000:924 JLINK_WriteReg(R0, 0x00019400)  returns 0x00 (0000ms, 0669ms total)
T0E4C 000:924 JLINK_WriteReg(R1, 0x00000400)  returns 0x00 (0000ms, 0669ms total)
T0E4C 000:924 JLINK_WriteReg(R2, 0x000000FF)  returns 0x00 (0000ms, 0669ms total)
T0E4C 000:924 JLINK_WriteReg(R3, 0x00000000)  returns 0x00 (0000ms, 0669ms total)
T0E4C 000:924 JLINK_WriteReg(R4, 0x00000000)  returns 0x00 (0000ms, 0669ms total)
T0E4C 000:924 JLINK_WriteReg(R5, 0x00000000)  returns 0x00 (0000ms, 0669ms total)
T0E4C 000:924 JLINK_WriteReg(R6, 0x00000000)  returns 0x00 (0000ms, 0669ms total)
T0E4C 000:924 JLINK_WriteReg(R7, 0x00000000)  returns 0x00 (0000ms, 0669ms total)
T0E4C 000:924 JLINK_WriteReg(R8, 0x00000000)  returns 0x00 (0000ms, 0669ms total)
T0E4C 000:924 JLINK_WriteReg(R9, 0x20000474)  returns 0x00 (0000ms, 0669ms total)
T0E4C 000:924 JLINK_WriteReg(R10, 0x00000000)  returns 0x00 (0000ms, 0669ms total)
T0E4C 000:924 JLINK_WriteReg(R11, 0x00000000)  returns 0x00 (0000ms, 0669ms total)
T0E4C 000:924 JLINK_WriteReg(R12, 0x00000000)  returns 0x00 (0000ms, 0669ms total)
T0E4C 000:924 JLINK_WriteReg(R13 (SP), 0x20001000)  returns 0x00 (0000ms, 0669ms total)
T0E4C 000:924 JLINK_WriteReg(R14, 0x20000001)  returns 0x00 (0000ms, 0669ms total)
T0E4C 000:924 JLINK_WriteReg(R15 (PC), 0x20000188)  returns 0x00 (0000ms, 0669ms total)
T0E4C 000:924 JLINK_WriteReg(XPSR, 0x01000000)  returns 0x00 (0000ms, 0669ms total)
T0E4C 000:924 JLINK_WriteReg(MSP, 0x20001000)  returns 0x00 (0000ms, 0669ms total)
T0E4C 000:924 JLINK_WriteReg(PSP, 0x20001000)  returns 0x00 (0000ms, 0669ms total)
T0E4C 000:924 JLINK_WriteReg(CFBP, 0x00000000)  returns 0x00 (0000ms, 0669ms total)
T0E4C 000:924 JLINK_SetBPEx(Addr = 0x20000000, Type = 0xFFFFFFF2)  returns 0x0000000C (0000ms, 0669ms total)
T0E4C 000:924 JLINK_Go() -- CPU_ReadMem(4 bytes @ 0xE0001000) -- CPU_WriteMem(4 bytes @ 0xE0001000) (0004ms, 0673ms total)
T0E4C 000:928 JLINK_IsHalted() -- CPU_ReadMem(2 bytes @ 0x20000000)  returns TRUE (0004ms, 0677ms total)
T0E4C 000:932 JLINK_ReadReg(R15 (PC))  returns 0x20000000 (0000ms, 0673ms total)
T0E4C 000:932 JLINK_ClrBPEx(BPHandle = 0x0000000C)  returns 0x00 (0000ms, 0673ms total)
T0E4C 000:932 JLINK_ReadReg(R0)  returns 0x00000001 (0000ms, 0673ms total)
T0E4C 000:932 JLINK_WriteReg(R0, 0x00019400)  returns 0x00 (0000ms, 0673ms total)
T0E4C 000:932 JLINK_WriteReg(R1, 0x00000400)  returns 0x00 (0000ms, 0673ms total)
T0E4C 000:932 JLINK_WriteReg(R2, 0x000000FF)  returns 0x00 (0000ms, 0673ms total)
T0E4C 000:932 JLINK_WriteReg(R3, 0x00000000)  returns 0x00 (0000ms, 0673ms total)
T0E4C 000:932 JLINK_WriteReg(R4, 0x00000000)  returns 0x00 (0000ms, 0673ms total)
T0E4C 000:932 JLINK_WriteReg(R5, 0x00000000)  returns 0x00 (0000ms, 0673ms total)
T0E4C 000:932 JLINK_WriteReg(R6, 0x00000000)  returns 0x00 (0000ms, 0673ms total)
T0E4C 000:932 JLINK_WriteReg(R7, 0x00000000)  returns 0x00 (0000ms, 0673ms total)
T0E4C 000:932 JLINK_WriteReg(R8, 0x00000000)  returns 0x00 (0000ms, 0673ms total)
T0E4C 000:932 JLINK_WriteReg(R9, 0x20000474)  returns 0x00 (0000ms, 0673ms total)
T0E4C 000:932 JLINK_WriteReg(R10, 0x00000000)  returns 0x00 (0000ms, 0673ms total)
T0E4C 000:932 JLINK_WriteReg(R11, 0x00000000)  returns 0x00 (0000ms, 0673ms total)
T0E4C 000:932 JLINK_WriteReg(R12, 0x00000000)  returns 0x00 (0000ms, 0673ms total)
T0E4C 000:932 JLINK_WriteReg(R13 (SP), 0x20001000)  returns 0x00 (0000ms, 0673ms total)
T0E4C 000:932 JLINK_WriteReg(R14, 0x20000001)  returns 0x00 (0000ms, 0673ms total)
T0E4C 000:932 JLINK_WriteReg(R15 (PC), 0x20000104)  returns 0x00 (0000ms, 0673ms total)
T0E4C 000:932 JLINK_WriteReg(XPSR, 0x01000000)  returns 0x00 (0000ms, 0673ms total)
T0E4C 000:932 JLINK_WriteReg(MSP, 0x20001000)  returns 0x00 (0000ms, 0673ms total)
T0E4C 000:932 JLINK_WriteReg(PSP, 0x20001000)  returns 0x00 (0000ms, 0673ms total)
T0E4C 000:932 JLINK_WriteReg(CFBP, 0x00000000)  returns 0x00 (0000ms, 0673ms total)
T0E4C 000:932 JLINK_SetBPEx(Addr = 0x20000000, Type = 0xFFFFFFF2)  returns 0x0000000D (0000ms, 0673ms total)
T0E4C 000:932 JLINK_Go() -- CPU_ReadMem(4 bytes @ 0xE0001000) -- CPU_WriteMem(4 bytes @ 0xE0001000) (0003ms, 0676ms total)
T0E4C 000:935 JLINK_IsHalted()  returns FALSE (0000ms, 0676ms total)
T0E4C 000:944 JLINK_IsHalted()  returns FALSE (0000ms, 0676ms total)
T0E4C 000:946 JLINK_IsHalted()  returns FALSE (0000ms, 0676ms total)
T0E4C 000:948 JLINK_IsHalted()  returns FALSE (0000ms, 0676ms total)
T0E4C 000:950 JLINK_IsHalted()  returns FALSE (0000ms, 0676ms total)
T0E4C 000:952 JLINK_IsHalted()  returns FALSE (0000ms, 0676ms total)
T0E4C 000:954 JLINK_IsHalted()  returns FALSE (0001ms, 0677ms total)
T0E4C 000:956 JLINK_IsHalted() -- CPU_ReadMem(2 bytes @ 0x20000000)  returns TRUE (0005ms, 0681ms total)
T0E4C 000:961 JLINK_ReadReg(R15 (PC))  returns 0x20000000 (0000ms, 0676ms total)
T0E4C 000:961 JLINK_ClrBPEx(BPHandle = 0x0000000D)  returns 0x00 (0000ms, 0676ms total)
T0E4C 000:961 JLINK_ReadReg(R0)  returns 0x00000000 (0000ms, 0676ms total)
T0E4C 000:961 JLINK_WriteReg(R0, 0x00019800)  returns 0x00 (0000ms, 0676ms total)
T0E4C 000:961 JLINK_WriteReg(R1, 0x00000400)  returns 0x00 (0000ms, 0676ms total)
T0E4C 000:961 JLINK_WriteReg(R2, 0x000000FF)  returns 0x00 (0000ms, 0676ms total)
T0E4C 000:961 JLINK_WriteReg(R3, 0x00000000)  returns 0x00 (0000ms, 0676ms total)
T0E4C 000:961 JLINK_WriteReg(R4, 0x00000000)  returns 0x00 (0000ms, 0676ms total)
T0E4C 000:961 JLINK_WriteReg(R5, 0x00000000)  returns 0x00 (0000ms, 0676ms total)
T0E4C 000:961 JLINK_WriteReg(R6, 0x00000000)  returns 0x00 (0000ms, 0676ms total)
T0E4C 000:961 JLINK_WriteReg(R7, 0x00000000)  returns 0x00 (0000ms, 0676ms total)
T0E4C 000:961 JLINK_WriteReg(R8, 0x00000000)  returns 0x00 (0000ms, 0676ms total)
T0E4C 000:961 JLINK_WriteReg(R9, 0x20000474)  returns 0x00 (0000ms, 0676ms total)
T0E4C 000:961 JLINK_WriteReg(R10, 0x00000000)  returns 0x00 (0000ms, 0676ms total)
T0E4C 000:961 JLINK_WriteReg(R11, 0x00000000)  returns 0x00 (0000ms, 0676ms total)
T0E4C 000:961 JLINK_WriteReg(R12, 0x00000000)  returns 0x00 (0000ms, 0676ms total)
T0E4C 000:961 JLINK_WriteReg(R13 (SP), 0x20001000)  returns 0x00 (0000ms, 0676ms total)
T0E4C 000:961 JLINK_WriteReg(R14, 0x20000001)  returns 0x00 (0000ms, 0676ms total)
T0E4C 000:961 JLINK_WriteReg(R15 (PC), 0x20000188)  returns 0x00 (0000ms, 0676ms total)
T0E4C 000:961 JLINK_WriteReg(XPSR, 0x01000000)  returns 0x00 (0000ms, 0676ms total)
T0E4C 000:961 JLINK_WriteReg(MSP, 0x20001000)  returns 0x00 (0000ms, 0676ms total)
T0E4C 000:961 JLINK_WriteReg(PSP, 0x20001000)  returns 0x00 (0000ms, 0676ms total)
T0E4C 000:961 JLINK_WriteReg(CFBP, 0x00000000)  returns 0x00 (0000ms, 0676ms total)
T0E4C 000:961 JLINK_SetBPEx(Addr = 0x20000000, Type = 0xFFFFFFF2)  returns 0x0000000E (0000ms, 0676ms total)
T0E4C 000:961 JLINK_Go() -- CPU_ReadMem(4 bytes @ 0xE0001000) -- CPU_WriteMem(4 bytes @ 0xE0001000) (0004ms, 0680ms total)
T0E4C 000:965 JLINK_IsHalted() -- CPU_ReadMem(2 bytes @ 0x20000000)  returns TRUE (0005ms, 0685ms total)
T0E4C 000:970 JLINK_ReadReg(R15 (PC))  returns 0x20000000 (0000ms, 0680ms total)
T0E4C 000:970 JLINK_ClrBPEx(BPHandle = 0x0000000E)  returns 0x00 (0000ms, 0680ms total)
T0E4C 000:970 JLINK_ReadReg(R0)  returns 0x00000001 (0000ms, 0680ms total)
T0E4C 000:970 JLINK_WriteReg(R0, 0x00019800)  returns 0x00 (0000ms, 0680ms total)
T0E4C 000:970 JLINK_WriteReg(R1, 0x00000400)  returns 0x00 (0000ms, 0680ms total)
T0E4C 000:970 JLINK_WriteReg(R2, 0x000000FF)  returns 0x00 (0000ms, 0680ms total)
T0E4C 000:970 JLINK_WriteReg(R3, 0x00000000)  returns 0x00 (0000ms, 0680ms total)
T0E4C 000:970 JLINK_WriteReg(R4, 0x00000000)  returns 0x00 (0000ms, 0680ms total)
T0E4C 000:970 JLINK_WriteReg(R5, 0x00000000)  returns 0x00 (0000ms, 0680ms total)
T0E4C 000:970 JLINK_WriteReg(R6, 0x00000000)  returns 0x00 (0000ms, 0680ms total)
T0E4C 000:970 JLINK_WriteReg(R7, 0x00000000)  returns 0x00 (0000ms, 0680ms total)
T0E4C 000:970 JLINK_WriteReg(R8, 0x00000000)  returns 0x00 (0000ms, 0680ms total)
T0E4C 000:970 JLINK_WriteReg(R9, 0x20000474)  returns 0x00 (0000ms, 0680ms total)
T0E4C 000:970 JLINK_WriteReg(R10, 0x00000000)  returns 0x00 (0000ms, 0680ms total)
T0E4C 000:970 JLINK_WriteReg(R11, 0x00000000)  returns 0x00 (0000ms, 0680ms total)
T0E4C 000:970 JLINK_WriteReg(R12, 0x00000000)  returns 0x00 (0000ms, 0680ms total)
T0E4C 000:970 JLINK_WriteReg(R13 (SP), 0x20001000)  returns 0x00 (0000ms, 0680ms total)
T0E4C 000:970 JLINK_WriteReg(R14, 0x20000001)  returns 0x00 (0000ms, 0680ms total)
T0E4C 000:970 JLINK_WriteReg(R15 (PC), 0x20000104)  returns 0x00 (0000ms, 0680ms total)
T0E4C 000:970 JLINK_WriteReg(XPSR, 0x01000000)  returns 0x00 (0000ms, 0680ms total)
T0E4C 000:970 JLINK_WriteReg(MSP, 0x20001000)  returns 0x00 (0000ms, 0680ms total)
T0E4C 000:970 JLINK_WriteReg(PSP, 0x20001000)  returns 0x00 (0000ms, 0680ms total)
T0E4C 000:970 JLINK_WriteReg(CFBP, 0x00000000)  returns 0x00 (0000ms, 0680ms total)
T0E4C 000:970 JLINK_SetBPEx(Addr = 0x20000000, Type = 0xFFFFFFF2)  returns 0x0000000F (0000ms, 0680ms total)
T0E4C 000:970 JLINK_Go() -- CPU_ReadMem(4 bytes @ 0xE0001000) -- CPU_WriteMem(4 bytes @ 0xE0001000) (0002ms, 0682ms total)
T0E4C 000:973 JLINK_IsHalted()  returns FALSE (0000ms, 0683ms total)
T0E4C 000:977 JLINK_IsHalted()  returns FALSE (0001ms, 0684ms total)
T0E4C 000:979 JLINK_IsHalted()  returns FALSE (0001ms, 0684ms total)
T0E4C 000:981 JLINK_IsHalted()  returns FALSE (0001ms, 0684ms total)
T0E4C 000:983 JLINK_IsHalted()  returns FALSE (0001ms, 0684ms total)
T0E4C 000:989 JLINK_IsHalted()  returns FALSE (0001ms, 0684ms total)
T0E4C 000:991 JLINK_IsHalted()  returns FALSE (0001ms, 0684ms total)
T0E4C 000:993 JLINK_IsHalted() -- CPU_ReadMem(2 bytes @ 0x20000000)  returns TRUE (0005ms, 0688ms total)
T0E4C 000:998 JLINK_ReadReg(R15 (PC))  returns 0x20000000 (0000ms, 0683ms total)
T0E4C 000:998 JLINK_ClrBPEx(BPHandle = 0x0000000F)  returns 0x00 (0000ms, 0683ms total)
T0E4C 000:998 JLINK_ReadReg(R0)  returns 0x00000000 (0000ms, 0683ms total)
T0E4C 000:999 JLINK_WriteReg(R0, 0x00019C00)  returns 0x00 (0000ms, 0683ms total)
T0E4C 000:999 JLINK_WriteReg(R1, 0x00000400)  returns 0x00 (0000ms, 0683ms total)
T0E4C 000:999 JLINK_WriteReg(R2, 0x000000FF)  returns 0x00 (0000ms, 0683ms total)
T0E4C 000:999 JLINK_WriteReg(R3, 0x00000000)  returns 0x00 (0000ms, 0683ms total)
T0E4C 000:999 JLINK_WriteReg(R4, 0x00000000)  returns 0x00 (0000ms, 0683ms total)
T0E4C 000:999 JLINK_WriteReg(R5, 0x00000000)  returns 0x00 (0000ms, 0683ms total)
T0E4C 000:999 JLINK_WriteReg(R6, 0x00000000)  returns 0x00 (0000ms, 0683ms total)
T0E4C 000:999 JLINK_WriteReg(R7, 0x00000000)  returns 0x00 (0000ms, 0683ms total)
T0E4C 000:999 JLINK_WriteReg(R8, 0x00000000)  returns 0x00 (0000ms, 0683ms total)
T0E4C 000:999 JLINK_WriteReg(R9, 0x20000474)  returns 0x00 (0000ms, 0683ms total)
T0E4C 000:999 JLINK_WriteReg(R10, 0x00000000)  returns 0x00 (0000ms, 0683ms total)
T0E4C 000:999 JLINK_WriteReg(R11, 0x00000000)  returns 0x00 (0000ms, 0683ms total)
T0E4C 000:999 JLINK_WriteReg(R12, 0x00000000)  returns 0x00 (0000ms, 0683ms total)
T0E4C 000:999 JLINK_WriteReg(R13 (SP), 0x20001000)  returns 0x00 (0000ms, 0683ms total)
T0E4C 000:999 JLINK_WriteReg(R14, 0x20000001)  returns 0x00 (0000ms, 0683ms total)
T0E4C 000:999 JLINK_WriteReg(R15 (PC), 0x20000188)  returns 0x00 (0000ms, 0683ms total)
T0E4C 000:999 JLINK_WriteReg(XPSR, 0x01000000)  returns 0x00 (0000ms, 0683ms total)
T0E4C 000:999 JLINK_WriteReg(MSP, 0x20001000)  returns 0x00 (0000ms, 0683ms total)
T0E4C 000:999 JLINK_WriteReg(PSP, 0x20001000)  returns 0x00 (0000ms, 0683ms total)
T0E4C 000:999 JLINK_WriteReg(CFBP, 0x00000000)  returns 0x00 (0000ms, 0683ms total)
T0E4C 000:999 JLINK_SetBPEx(Addr = 0x20000000, Type = 0xFFFFFFF2)  returns 0x00000010 (0000ms, 0683ms total)
T0E4C 000:999 JLINK_Go() -- CPU_ReadMem(4 bytes @ 0xE0001000) -- CPU_WriteMem(4 bytes @ 0xE0001000) (0004ms, 0687ms total)
T0E4C 001:003 JLINK_IsHalted() -- CPU_ReadMem(2 bytes @ 0x20000000)  returns TRUE (0004ms, 0691ms total)
T0E4C 001:007 JLINK_ReadReg(R15 (PC))  returns 0x20000000 (0000ms, 0687ms total)
T0E4C 001:007 JLINK_ClrBPEx(BPHandle = 0x00000010)  returns 0x00 (0000ms, 0687ms total)
T0E4C 001:007 JLINK_ReadReg(R0)  returns 0x00000001 (0000ms, 0687ms total)
T0E4C 001:007 JLINK_WriteReg(R0, 0x00019C00)  returns 0x00 (0000ms, 0687ms total)
T0E4C 001:007 JLINK_WriteReg(R1, 0x00000400)  returns 0x00 (0000ms, 0687ms total)
T0E4C 001:007 JLINK_WriteReg(R2, 0x000000FF)  returns 0x00 (0000ms, 0687ms total)
T0E4C 001:007 JLINK_WriteReg(R3, 0x00000000)  returns 0x00 (0000ms, 0687ms total)
T0E4C 001:007 JLINK_WriteReg(R4, 0x00000000)  returns 0x00 (0000ms, 0687ms total)
T0E4C 001:007 JLINK_WriteReg(R5, 0x00000000)  returns 0x00 (0000ms, 0687ms total)
T0E4C 001:007 JLINK_WriteReg(R6, 0x00000000)  returns 0x00 (0000ms, 0687ms total)
T0E4C 001:007 JLINK_WriteReg(R7, 0x00000000)  returns 0x00 (0000ms, 0687ms total)
T0E4C 001:007 JLINK_WriteReg(R8, 0x00000000)  returns 0x00 (0000ms, 0687ms total)
T0E4C 001:007 JLINK_WriteReg(R9, 0x20000474)  returns 0x00 (0000ms, 0687ms total)
T0E4C 001:007 JLINK_WriteReg(R10, 0x00000000)  returns 0x00 (0000ms, 0687ms total)
T0E4C 001:007 JLINK_WriteReg(R11, 0x00000000)  returns 0x00 (0000ms, 0687ms total)
T0E4C 001:007 JLINK_WriteReg(R12, 0x00000000)  returns 0x00 (0000ms, 0687ms total)
T0E4C 001:007 JLINK_WriteReg(R13 (SP), 0x20001000)  returns 0x00 (0000ms, 0687ms total)
T0E4C 001:007 JLINK_WriteReg(R14, 0x20000001)  returns 0x00 (0000ms, 0687ms total)
T0E4C 001:007 JLINK_WriteReg(R15 (PC), 0x20000104)  returns 0x00 (0000ms, 0687ms total)
T0E4C 001:008 JLINK_WriteReg(XPSR, 0x01000000)  returns 0x00 (0000ms, 0688ms total)
T0E4C 001:008 JLINK_WriteReg(MSP, 0x20001000)  returns 0x00 (0000ms, 0688ms total)
T0E4C 001:008 JLINK_WriteReg(PSP, 0x20001000)  returns 0x00 (0000ms, 0688ms total)
T0E4C 001:008 JLINK_WriteReg(CFBP, 0x00000000)  returns 0x00 (0000ms, 0688ms total)
T0E4C 001:008 JLINK_SetBPEx(Addr = 0x20000000, Type = 0xFFFFFFF2)  returns 0x00000011 (0000ms, 0688ms total)
T0E4C 001:008 JLINK_Go() -- CPU_ReadMem(4 bytes @ 0xE0001000) -- CPU_WriteMem(4 bytes @ 0xE0001000) (0002ms, 0690ms total)
T0E4C 001:010 JLINK_IsHalted()  returns FALSE (0001ms, 0691ms total)
